#Digilent WaveForms Network Analyzer - Bode
#Device Name: Discovery2
#Serial Number: SN:210321A18A25
#Date Time: 2024-04-26 11:39:13.836
#Start: 100 Hz
#Stop: 50000 Hz
#Steps: 151
#Wavegen: Wavegen C1
#Amplification: 1 X
#Settle: 10 ms
#MinPeriods: 16 
#Channel: Channel 1
#Range: 60.4725 V
#Offset: -0.00262502 V
#Relative: no
#Channel: Channel 2
#Range: 59.9539 V
#Offset: -0.00191686 V
#Relative: yes

Frequency (Hz),Channel 1 Magnitude (dB),Channel 2 Magnitude (dB),Channel 2 Phase (deg)
100.0000000000001,-33.69095800911494,32.40957879835763,-82.88186253461758
104.2300949424216,-32.92734408853688,31.66377474503527,-87.9037647313001
108.6391269170621,-32.34625980373552,31.09318065022848,-87.57289680483326
113.2346651302716,-32.07052641506168,30.8084996062352,-83.65933267380518
118.0245989730151,-32.16366698164721,30.88908600763663,-87.4588854528256
123.0171515649861,-31.17097592724937,29.90384268854561,-84.16609579230827
128.2208938716475,-31.55057526698295,30.28369193089361,-88.51090084560829
133.6447594184397,-31.28474128346944,30.04508389799546,-84.742449503483
139.2980596274105,-30.48888897030747,29.23058707325157,-89.31973026264667
145.1904998026008,-29.99401170139624,28.74133948062573,-88.63602966391493
151.3321957916271,-29.57289491592975,28.33615507734182,-88.12315517689018
157.7336913520643,-29.21115375614136,27.97372577542899,-87.78894177386856
164.4059762524425,-28.85557788479163,27.63524628391121,-85.56329539276993
171.360505138936,-28.62302644027953,27.39139232651641,-86.94791152019248
178.609217200126,-28.11559965586983,26.89531320676809,-88.94709206929851
186.1645566636072,-27.66069517181663,26.4278276571883,-89.22966800854954
194.0394941596158,-27.57426955206343,26.34831123923546,-89.40497799095385
202.247548988362,-26.96328103910924,25.74609881915572,-88.99968937850819
210.8028123292901,-26.92830081361832,25.71355567855462,-88.89555368189775
219.7199714321139,-26.6874782161356,25.47247499346689,-87.28043456087522
229.0143348311534,-26.16087569516841,24.92810210244558,-91.20702431513038
238.7018586262665,-25.74887429128055,24.5206187421238,-87.06489347352658
248.7991738754823,-25.58585539727435,24.35272204992108,-90.63924851113015
259.3236151463755,-25.34062355605272,24.11212803496225,-90.06073141258571
270.2932502751869,-24.64484103754505,23.41284224831231,-87.5968581532631
281.7269113847843,-24.28653914866444,23.05868367169628,-89.59781539935567
293.6442272147124,-24.01731175558029,22.78584482732869,-85.80171079479479
306.0656568188346,-23.48515288139985,22.26454660944005,-90.67389171205168
319.0125246884172,-23.19428491167336,21.99044622758073,-89.762095710883
332.5070573609534,-22.90877466890433,21.67801519322344,-86.69614475018199
346.5724215775736,-23.06391331016986,21.81599904309735,-87.21755291969032
361.2327640545542,-22.28428455146547,21.05131964459528,-89.992046605864
376.5132529371953,-22.09331334959904,20.85758801550543,-88.6795514975037
392.4401210072382,-21.76865261545012,20.52914964777468,-87.87897259662682
409.0407107179982,-21.2064772419263,19.93059408638318,-88.41089570845683
426.3435211345256,-20.97178605840212,19.72148354436188,-87.30750086175789
444.3782568593789,-20.60203359235203,19.36842948464431,-88.74303824127198
463.1758790280082,-20.03945674408561,18.78736070637371,-88.50375556659392
482.7686584612883,-19.81200482689116,18.55522610652034,-88.47452767956447
503.1902310664553,-19.18352870339089,17.90285439966618,-90.29608068480381
524.4756555815562,-19.0563460346921,17.7745294562681,-88.97817116209758
546.6614737625438,-18.7439443489887,17.45843703601968,-88.86967951960764
569.7857731163404,-18.46764726778812,17.18297459019832,-89.92384556407495
593.8882522875714,-18.18600627593348,16.90609944469465,-89.33479108603598
619.0102892112237,-17.80382664803806,16.50667135577393,-89.9647988836108
645.1950121482167,-17.42671424551598,16.12833876734154,-88.43065806648539
672.4873737258538,-17.29025712126257,15.98070226463453,-89.074322382332
700.9342281102546,-16.75120175521838,15.43891445995972,-88.17480878270847
730.584411443248,-16.50596899063973,15.16062177276671,-88.73539357507219
761.4888256818282,-16.39976183111046,15.06101103813533,-89.43775246496892
793.7005259841002,-15.7881408775945,14.41530234678982,-88.24164442984534
827.2748117917272,-15.4600991246098,14.10362032130545,-89.2552229842142
862.2693217652554,-15.14409520318929,13.76796841679786,-88.52611143709321
898.7441327352996,-14.80514325446319,13.44165829839841,-88.59481384451026
936.7618628394459,-14.68276074944736,13.29501264136381,-89.77864773581375
976.3877790219507,-14.31800325268281,12.89484988429641,-90.26834769130909
1017.68990908078,-13.91483843502755,12.49031935535182,-89.08429620732664
1060.73915845434,-13.59060718467702,12.15200467174635,-90.66097636445912
1105.609431948401,-13.32113295722719,11.89539942911358,-89.94831687140243
1152.377760612186,-13.02757015178366,11.58403180277589,-90.10100173902499
1201.124433981432,-12.56086976996981,11.06917528670536,-91.13027517203606
1251.93313791547,-12.38234587850161,10.89356143406738,-90.19144844695211
1304.891098264931,-12.1725706393634,10.66663854219715,-90.5875152508364
1360.089230616743,-11.56305123253546,10.07271114437728,-90.50215689226135
1417.622296373483,-11.31956821222112,9.784235097271385,-91.33751915999841
1477.589065435017,-10.87378365988788,9.338356284912084,-90.90428074134229
1540.092485761756,-10.76451124412172,9.23081987166114,-91.45395709147829
1605.239860110578,-10.55489293580288,9.012116183407988,-91.67353401726272
1673.14303024685,-10.09282895967172,8.525123529022796,-91.91044072950291
1743.918568948799,-9.837344878490752,8.264193451698338,-93.14386020619821
1817.687980133853,-9.467936734111145,7.846820392301978,-94.15560654751403
1894.577907450499,-9.253100592689439,7.640139106239645,-94.5878150829175
1974.720351693797,-9.004799988723152,7.379309600573326,-93.85730224038279
2058.252897417765,-8.639452279074813,6.963411809790524,-94.96112146503805
2145.318949133678,-8.325868888393558,6.655116914528175,-96.14237967914671
2236.067977499791,-7.996906170343877,6.350590323038929,-95.65195226377885
2330.655775925117,-7.691078950205209,6.011086916097932,-95.58590255656452
2429.244728027779,-7.368341526336145,5.714383031911582,-97.25853518139633
2532.004086407124,-7.169399733883125,5.466322192587196,-97.63329888612168
2639.110263208136,-6.761629460401729,5.073585888444963,-98.28823086201761
2750.747132977031,-6.426246310743725,4.749105497748643,-99.47979876629273
2867.106348327898,-6.090190119574786,4.365829609148462,-100.0729646089092
2988.38766896236,-5.794899257764797,4.046555355693072,-100.0535072210452
3114.799304607086,-5.509928122703237,3.793079776680348,-100.8716351001127
3246.558272457852,-5.20428349723037,3.445006029753896,-101.9422885849356
3383.890769743857,-4.770426489299178,3.039441825470624,-102.9985474538335
3527.032562051862,-4.58070334014651,2.793167668822242,-103.9254060450329
3676.229388076776,-4.131079165014765,2.410695967946276,-105.054376142397
3831.737381493625,-3.886484507666325,2.136484122347325,-106.1621348283068
3993.823510675062,-3.487841868408594,1.699416985879955,-107.0530738706051
4162.766037009368,-3.290656065954308,1.435029529744406,-107.5605907838186
4338.854992605741,-2.917981374585186,1.105722701817272,-109.7136154238411
4522.392678206958,-2.60165904629317,0.7889272837187913,-109.8088873161246
4713.694182164233,-2.264858875376266,0.4179960126625679,-111.4885215763921
4913.087921365179,-1.915794426945727,0.09281311013886567,-112.782492200267
5120.916205043567,-1.624554958694123,-0.2023358191030833,-114.1507185993081
5337.53582243876,-1.262247140079731,-0.6354889412998617,-115.5166529129977
5563.318655313677,-0.9715683262444487,-0.9367964620854063,-116.8012066027291
5798.652316382892,-0.6171887180201535,-1.376989047930382,-118.6108827486427
6043.940814746816,-0.3268411782841483,-1.737360430090996,-119.7365046147362
6299.605249474367,-0.03924516168803207,-2.097923569902879,-121.661647894896
6566.084532524903,0.2976714904842016,-2.398512429370204,-123.107851576059
6843.836142250362,0.5981522898927815,-2.740226009819091,-124.6753919757902
7133.336908771306,0.8746354572801798,-3.191154072692595,-126.3408438513282
7435.083832575129,1.156212337442216,-3.531498995217009,-128.8042243263091
7749.594937741685,1.357904487529386,-3.796312810119888,-130.4128701216403
8077.410161261253,1.62751727344348,-4.172490254740168,-132.7194072362254
8419.092279971408,1.848807724644237,-4.632600719427574,-134.1477522701977
8775.227876704274,2.048360346369768,-5.006724647116542,-136.65987255801
9146.428347302706,2.221887094015087,-5.308289404040955,-138.9348809482041
9533.33095023416,2.364412311272951,-5.680076000420502,-140.4336475560604
9936.599900604322,2.420458867456195,-6.193544253161295,-142.7866135782891
10356.92751044845,2.531358889861025,-6.426302757038503,-145.2154895052093
10795.03537725818,2.638352391226788,-6.875439455228086,-147.5996577927693
11251.6756227842,2.647748528769472,-7.09394209450481,-151.1732495278495
11727.63218424127,2.653630934907374,-7.609821391826342,-153.8172438874022
12223.72216013265,2.613276005707343,-8.01963268217585,-156.1670340836392
12740.79721300408,2.588809736103947,-8.307244034492939,-159.7482358742208
13279.74503153555,2.519628926956845,-8.774540884258093,-162.9776534773737
13841.490854481,2.407083751199806,-9.090466034093552,-165.8454199794518
14426.99905907214,2.300313513583572,-9.375694122141631,-168.3980657205991
15037.27481661315,2.247354101420729,-9.780102211796859,-172.2632192210493
15673.36581810872,2.050118802992478,-10.05970012410119,-176.1304307607544
16336.36407288775,1.841252238486845,-10.98158957424239,-180.1067579528016
17027.40778331055,1.839571864441775,-10.60043344741833,-184.1652186200461
17747.68329877786,1.609514687663519,-11.17109964674512,-188.7745553711533
18498.42715239644,1.418453591986475,-11.83263821965021,-190.7147503983465
19280.92818379749,1.242898682764475,-12.21302287393431,-195.3523242924845
20096.52975175224,1.020092273083293,-12.3635510343291,-199.8528409084948
20946.63204038333,0.8817967502507041,-12.84126785484952,-204.2691048046846
21832.69446293124,0.6783243908086967,-13.24450022814402,-207.5628567647029
22756.23816720202,0.6578019550173888,-13.14228942468097,-210.6927390670491
23718.84864699823,0.002751002590155466,-16.14717992687269,-216.4280354520435
24722.17846401552,1.324356007836644,-12.16288078397656,-189.4410571069175
25767.95008487826,0.7352976433093406,-9.581205769460842,-227.960317948482
26857.95883818439,-0.9244482580969768,-13.63211096792894,-259.6144702938136
27994.07599663607,-0.7039045751319184,-16.59703941489332,-248.6421051382188
29178.25198954741,-0.744635823281894,-16.3757394123404,-252.2461210021108
30412.51975124426,-0.8921372683028649,-16.45973389042611,-257.304027610556
31698.99821110458,-0.9841018911196348,-16.56720694932818,-261.8904274978965
33039.89593123081,-1.152033740314691,-17.24660798393296,-265.7808900851436
34437.51489799911,-1.353785145651692,-17.60563375046648,-279.8481332554452
35894.25447399503,-1.41559795171197,-18.07854577982812,-288.4772722084687
37412.61551711941,-1.560605010152025,-19.57787618247824,-298.9407630523222
38995.20467393667,-1.578698882885973,-20.94397007731272,-314.000000725469
40644.73885463578,-0.9725673493635232,-19.4201036888524,-99.86417077872153
42364.04989728618,-2.566099244189765,-11.92404631274593,-302.4420414670819
44156.08942939618,3.614953992467798,-3.208609600014644,-146.0260445552707
46023.93393512021,9.962961117414421,-1.760885157275787,-192.5706078154558
47970.79003681312,7.357876796030522,2.833878156512722,-182.6755524126117
50000,8.089603559558778,2.110250553322597,-191.963108504582
