#Digilent WaveForms Network Analyzer - Bode
#Device Name: Discovery2
#Serial Number: SN:210321A18885
#Date Time: 2024-04-12 11:28:19.385
#Start: 10 Hz
#Stop: 50000 Hz
#Steps: 151
#Wavegen: Wavegen C1
#Amplification: 1 X
#Settle: 10 ms
#MinPeriods: 16 
#Channel: Channel 1
#Range: 60.5696 V
#Offset: -0.00159337 V
#Relative: no
#Channel: Channel 2
#Range: 60.4927 V
#Offset: -0.00277409 V
#Relative: yes

Frequency (Hz),Channel 1 Magnitude (dB),Channel 2 Magnitude (dB),Channel 2 Phase (deg)
10,-0.007956331536699366,17.42797307416818,-0.3141911024512467
10.58424294923851,-0.01331574147213347,17.429540892964,-0.4252328073140106
11.2026198808505,-0.0137094529561117,17.43055846177672,-0.4647136863653998
11.85712504868911,-0.01577141482599772,17.44167142602066,-0.56096592772154
12.54986921948269,-0.005775495089660448,17.42163162868619,-0.5295175918123922
13.28308648001751,-0.00941039069783116,17.42380051998682,-0.6036479012012279
14.05914144202507,-0.006364857940505216,17.40969779148677,-0.5601419070341649
14.88053686801006,-0.004374705746697509,17.41304801766306,-0.5925561913746975
15.74992174261191,-0.008669205899796376,17.42214817104322,-0.6147919844899548
16.67009981552986,0.0003332544234941487,17.4229561267958,-0.5843588878805406
17.64403864356239,-0.00932096901648166,17.41508606513722,-0.6185859549140744
18.6748791609217,-0.01067684158703778,17.43400574297518,-0.785134268295252
19.76594580868665,-0.01658031547423728,17.43977981621439,-0.7518745322090297
20.92075725606221,-0.004082393871894873,17.42371640032379,-0.8431090042641642
22.14303774802068,-0.006332430084952165,17.41959380366267,-0.8501228552202775
23.436729115921,-0.01304629002404902,17.43203344887788,-0.8823388742980001
24.80600348983997,-0.005832398149045836,17.42107303541705,-1.023048449288154
26.25527675361243,-0.01422752065314949,17.42969039114874,-0.9761117020670724
27.78922278597281,-0.0007460341416883931,17.41387828015371,-1.06472917548345
29.41278853372508,-0.002070617271601541,17.40992912357507,-1.225879784168228
31.13120996555226,-0.0001944065054452398,17.41164373202707,-1.177070731003445
32.95002895791605,-0.01143101024761044,17.42324743262301,-1.278312022772333
34.87511116750276,-0.003945019191941554,17.41618470814117,-1.312589582836708
36.91266494785499,0.0007645852193165539,17.41161438508798,-1.341841150358704
39.06926137119375,-0.006739544283061483,17.41881630619481,-1.405838489990231
41.35185542000135,-0.008557556100887383,17.41500322660688,-1.570731533733522
43.76780841670799,0.000962081262534675,17.41035982547478,-1.563801505157258
46.3249117638163,-0.02899835725576806,17.43931420913195,-1.769538784181215
49.03141207102686,-0.009935552880525908,17.41961327804655,-1.86433146797922
51.8960377503974,-0.01469140810015907,17.41911568482669,-1.840882991806794
54.92802716530586,-0.0003795865452682893,17.40351429647618,-1.933679269693528
58.13715842399698,0.003424060068246325,17.39842021650869,-2.09768031109877
61.53378091379528,-0.005770078289607099,17.40812942908519,-2.225964405004351
65.12884867768241,-0.02379259814467374,17.42255749872324,-2.362067895577241
68.93395574087819,-0.008136981474237881,17.40441829182603,-2.404040953306747
72.96137350135093,-0.005219487985729849,17.40312019810072,-2.560554943145036
77.22409030484302,-0.01210340935465081,17.40474922032254,-2.863869220833354
81.73585333203927,-0.02745855134111982,17.41661921386126,-2.885355195480074
86.51121293296302,-0.02326592336666137,17.41028552589303,-3.042125887383843
91.56556955157842,-0.01445980987137077,17.40464083138935,-3.278040497381753
96.91522339193011,-0.0145340439447335,17.40557475355171,-3.507890128401499
102.5774269859912,-0.01676547110318569,17.40336021050971,-3.750523233168392
108.5704408327505,-0.007142520021789243,17.39397651376922,-3.806553342881585
114.9135922879754,-0.003753058947866436,17.38784750781775,-4.250594264619719
121.6273378945674,-0.02069776273467258,17.39895188171985,-4.367600866185668
128.7333293545225,0.005049237364813454,17.3734736836603,-4.596595411319825
136.2544833552602,-0.02585810568584547,17.39911033573966,-4.917864563269802
144.2150554755048,-0.01857434283953414,17.3845594892411,-5.305051463594253
152.6407184090652,-0.00929524696029585,17.38307618558707,-5.466205127388804
161.5586447587848,-0.01470811195602974,17.37525954745501,-5.788943811689066
170.9975946676697,-0.02263444935904351,17.37569288561887,-6.2927732844242
180.9880085698029,-0.0147950551332923,17.36334802367981,-6.459595135794086
191.5621053601653,-0.01726685615867246,17.35990237093502,-6.773423006338916
202.7539862999612,-0.02397754549229842,17.35951924655452,-7.196050569840168
214.5997449925365,-0.006604010509349317,17.33220110709497,-7.631253329996465
227.1375837845639,-0.009890665769993874,17.33283462707642,-8.260897199004296
240.4079369678839,-0.01988106215223978,17.33320228157317,-8.533052660172231
254.4536011793301,0.01079422831693999,17.28677510783931,-9.086635609079494
269.3198734190672,0.009000771209931702,17.27976393839036,-9.486450323545739
285.0546971325567,-0.005228009340280284,17.28334069683382,-9.973623541145571
301.7088168272581,-0.02988763771544369,17.29140432763838,-10.80579715370378
319.3359417227003,-0.004496809763233277,17.24937302583681,-11.2779120184681
337.9929189616926,-0.01074822476780239,17.24435750988748,-11.78830634177208
357.7399169412834,0.003295326555916864,17.20560067344749,-12.69214881521138
378.6406193546952,-0.03643395664935094,17.22125169930081,-13.27632122009114
400.7624305700231,0.006504085253118435,17.15961401722947,-14.07560990366414
424.1766930080449,-0.01437219447942039,17.15212909122754,-14.66741000499728
448.9589172201711,-0.009559554576612913,17.11093323245695,-15.48694732840787
475.1890254085353,-0.01519424911146627,17.09808463087121,-16.55706841238276
502.9516091735803,-0.03835801881514552,17.0752849619854,-17.38462529460936
532.3362023203628,-0.02484845654963111,17.02071747334003,-18.38270200251321
563.4375696033708,-0.003472827541978953,16.95647806655682,-19.34693961129551
596.3560123410552,-0.03055879267543232,16.93511808807239,-20.3906594385646
631.1976918856806,0.01712653997258005,16.83316503035085,-21.63575092356564
668.0749719916639,0.004498141418610668,16.78910764569732,-22.71356477953881
707.1067811865476,-0.008949448372217946,16.73574515433572,-23.73848058490132
748.4189963132453,0.001310578356937134,16.66296975091238,-25.16105926451917
792.1448484804624,0.005619041816772949,16.57743544780709,-26.48649308918418
838.4253527304941,0.01757868464219779,16.49187132196391,-27.86163384611442
887.4097628100533,-0.01447616815756137,16.42081547441722,-29.3162223418215
939.2560525107727,-0.0224061047832214,16.33185997663605,-30.66483881696461
994.1314251316742,0.03078092114373364,16.16907703411187,-32.42780359789619
1052.212852706634,-0.004367690481710262,16.07322289416076,-33.70481334771563
1113.687646735833,-0.02876884589832992,15.96796313223529,-35.50780214554869
1178.754062261777,0.003304252913803935,15.79462447566762,-37.34454783799478
1247.621937238045,-0.02221635749410842,15.67034829623011,-38.97605263267212
1320.513369252708,0.01385925354363261,15.47386708378816,-40.67509505806372
1397.663431788814,0.01848521609739914,15.30145602354797,-42.4539771951241
1479.320932331926,0.01130841400779836,15.11537501525544,-44.27863983375913
1565.749214769513,-0.01443421990822173,14.9435436341555,-45.90674542095985
1657.227008669993,-0.01909221775625948,14.73372700475504,-47.92919133296463
1754.049328180301,0.007793658002254115,14.46816413191322,-49.97962907749971
1856.528423440887,0.02670069079328943,14.22190500189841,-51.82615697636547
1964.994787586509,0.04908074867259336,13.93801997891713,-53.76851269629164
2079.798222580294,0.02148552782965104,13.70350472914937,-55.92535615437842
2201.308967318424,0.0237363263866255,13.41808384551539,-57.82060292829998
2329.918891643553,0.02231145144105088,13.13297103059184,-59.76636624874577
2466.042760117587,0.03829643616615205,12.80453968110007,-61.72448237131853
2610.119569629524,0.07358383778969681,12.4654210316842,-63.70049896156169
2762.613965152073,0.01956626715016888,12.18559223065823,-65.74771488629489
2924.017738212866,0.08160116357399405,11.79010355161644,-67.60221919589205
3094.851412912785,0.03558686731497901,11.49857898129702,-69.55925492343931
3275.665924606298,0.07565286636027482,11.09903428525748,-71.72866954080368
3467.044396657504,0.06112795380322122,10.74673488929131,-73.63593523169232
3669.604021001906,0.0827963965352403,10.34256686045502,-75.59529943301979
3883.998048578666,0.1146962976338495,9.926382545058193,-77.51773237448454
4110.91789605249,0.1132990013914446,9.543657816587636,-79.25837463494949
4351.095375619197,0.1185442946987972,9.144882722235238,-81.25530513448382
4605.305055086172,0.1141296289003067,8.760799720058314,-83.42450382278034
4874.36675583883,0.1337209234044607,8.294264095993269,-85.32408545333749
5159.148196748966,0.1119216883448063,7.921013381976398,-87.26168685823362
5460.567792551683,0.1524102440254439,7.465104533263814,-89.7985878339025
5779.597615715405,0.145865794262268,7.013052937713345,-91.54045405331077
6117.266531357141,0.14292360326202,6.616564179300298,-93.2856930381339
6474.663515312955,0.1494279465530136,6.164146277211429,-95.57352890834528
6852.941166064297,0.1410138467002755,5.733188469250752,-97.28975354122845
7253.319421846229,0.1652343297457215,5.241120027184038,-99.55164135661595
7677.08949492507,0.1821603099758578,4.808465277105435,-101.7523808781402
8125.618035733363,0.1773527822628292,4.33413389464315,-104.1266945532661
8600.351540291613,0.1728176600319652,3.9291339875007,-106.1652727212912
9102.821015130405,0.1592951343417245,3.450404742670846,-108.5547824257777
9634.646914757404,0.1392088250833175,3.028602220824534,-111.0685471223261
10197.54436759236,0.1593434572823081,2.56957177313161,-113.259121627917
10793.32870722362,0.1885126162712358,2.039500495535131,-115.7798906601994
11423.92132682452,0.1390268239622849,1.673990222003113,-118.3508298726806
12091.35587560979,0.1797425948833549,1.106255367374641,-121.336407472447
12797.78481731564,0.2301000339913032,0.6882075458117392,-124.0674491669649
13545.48637185448,0.1421526498940291,0.1998673977217154,-126.9329149643684
14336.87186253071,0.1371379113244922,-0.1811309945432666,-129.4738911330417
15174.49349251265,0.1341024094759871,-0.6940821363225702,-132.3543447587564
16061.05257563926,0.1501485062411141,-1.361819090488434,-134.8743993196266
16999.40824810587,0.1882340905960471,-2.292777029757261,-137.6637229256601
17992.58668912415,0.0520445557534312,-2.021961731782778,-143.7051184003223
19043.7908802925,0.08635151687077137,-2.4878884898786,-145.6550744866907
20156.41093515083,0.159207926309988,-2.894207181192456,-150.0396654155638
21334.03503223242,0.07948062291163743,-3.370329041204252,-154.2815047935925
22580.46098687132,0.1326457996150318,-4.053887000477534,-155.2804735092017
23899.7084990848,0.1096787538807579,0.3715071903117041,-150.9977479258705
25296.0321170294,0.0765482533749877,-3.126242961900016,141.3654589031497
26773.9349578379,0.09275583364104506,-9.925256876437464,173.4884776963199
28338.18323008663,0.1005506879798132,-4.568557352686568,-175.7907254046751
29993.82160472731,0.2190570513978282,-6.308642507511718,179.3815615727563
31746.18948405528,0.115534392652283,-6.874341605514243,172.9548164317105
33600.93822118018,0.01921942267871806,-8.286362694628442,167.6199759861741
35564.04934553248,0.1740979449914572,-8.38493409051668,166.1165310335292
37641.85385318225,0.02949338334864191,-8.69336723076983,157.1305871327506
39841.05262418107,0.05760584436935238,-9.002592483657182,151.523304159846
42168.73803277285,0.1661255879147242,-11.83478213853259,138.47927050141
44632.41682016619,0.04477107464291551,-6.917083485826812,-105.6882881316389
47240.03430363178,-0.00427772548228256,2.827875963775574,-17.67752210524519
50000,0.2617208188864421,5.665505976064687,101.0814219093948
