#Digilent WaveForms Network Analyzer - Bode
#Device Name: Discovery2
#Serial Number: SN:210321A18885
#Date Time: 2024-04-12 11:21:13.344
#Start: 10 Hz
#Stop: 50000 Hz
#Steps: 151
#Wavegen: Wavegen C1
#Amplification: 1 X
#Settle: 10 ms
#MinPeriods: 16 
#Channel: Channel 1
#Range: 60.5696 V
#Offset: -0.00159337 V
#Relative: no
#Channel: Channel 2
#Range: 60.4927 V
#Offset: -0.00277409 V
#Relative: yes

Frequency (Hz),Channel 1 Magnitude (dB),Channel 2 Magnitude (dB),Channel 2 Phase (deg)
10,0.02577800073256422,17.13880590102587,-0.7230278497552121
10.58424294923851,0.00624764942069399,17.13760061722553,-0.7417274094664634
11.2026198808505,0.01578131341820797,17.12239162083242,-0.8760895907287107
11.85712504868911,0.01726765497305429,17.13449376681378,-0.8882602433364468
12.54986921948269,0.01477134853020692,17.08550348488991,-1.087733188533988
13.28308648001751,0.01132880787704534,17.11743706593065,-1.010492552970005
14.05914144202507,0.0112097473572576,17.11948897872873,-1.152861730412809
14.88053686801006,0.02591780878883616,17.08578730539613,-1.260582810227511
15.74992174261191,0.009503457194972051,17.09833468473569,-1.171446647324231
16.67009981552986,0.02698853820847789,17.08036407168968,-1.394150233057331
17.64403864356239,0.01545613715941717,17.0989932564996,-1.247355518998639
18.6748791609217,0.005091822972719575,17.10234037456412,-1.468039068281428
19.76594580868665,0.01818600891136119,17.08284225031904,-1.57172314921749
20.92075725606221,0.02010561971297549,17.03915326264513,-1.433266784408346
22.14303774802068,0.02457696757596608,17.07866153157823,-1.528168170581779
23.436729115921,0.01470150891114617,17.08431282654039,-1.717261152511995
24.80600348983997,0.008036446478186066,17.09101520463273,-1.779853463294856
26.25527675361243,0.01449479816916498,17.07301124265361,-1.817524677831187
27.78922278597281,0.01134990919002709,17.06345666528262,-1.931057875527115
29.41278853372508,0.01001922677238308,17.05595297510515,-2.032867263188948
31.13120996555226,0.008976751849131378,17.05421031028002,-2.106066610710442
32.95002895791605,0.01804626560981069,17.03595838285315,-2.136879768367944
34.87511116750276,0.01709529212890759,17.03122356971564,-2.247150542432848
36.91266494785499,0.0122290867650727,17.03021193653323,-2.419160311911753
39.06926137119375,0.009898644439898243,17.03247408499161,-2.524278883138471
41.35185542000135,0.02871993648916564,17.01175969688835,-2.665503732881923
43.76780841670799,0.0161038589524732,17.03005812610495,-2.792720513373716
46.3249117638163,0.02142224507912572,17.01519112696949,-2.973326973420285
49.03141207102686,0.0148161418626742,17.01278381821045,-3.14701759371593
51.8960377503974,0.01565877503198878,17.01267202079451,-3.290904815048577
54.92802716530586,0.008543059388115896,17.01918291427706,-3.453582868559408
58.13715842399698,0.02390079290051719,17.01014911530469,-3.654385834762365
61.53378091379528,0.003862771109155644,17.02652488624393,-3.896382788387733
65.12884867768241,0.01642372975323245,17.01266968181817,-4.070653150633348
68.93395574087819,0.006286393039141024,17.01892844414765,-4.320128289609585
72.96137350135093,0.01489603213513704,17.0088991904988,-4.42955382000806
77.22409030484302,0.01673546242449155,16.99705863694968,-4.82190555522789
81.73585333203927,0.01306734636625806,16.98720782778017,-5.005313761628457
86.51121293296302,0.0215565974112109,16.97637535474482,-5.293274328604355
91.56556955157842,0.02117571519230462,16.97022491811842,-5.548428213843323
96.91522339193011,0.005142331853624205,16.97170356575499,-5.804672321299179
102.5774269859912,0.002012739005196088,16.95703872520945,-6.270880101253738
108.5704408327505,0.008772904543697323,16.98756988312275,-6.479331798723056
114.9135922879754,-0.001480706029136101,16.97502649081626,-6.908765104900596
121.6273378945674,0.015793034345761,16.94985839064077,-7.297540735790676
128.7333293545225,0.01699478924589382,16.93754922960807,-7.760606059523411
136.2544833552602,0.01769386314486274,16.92687515145616,-8.210572639098729
144.2150554755048,0.01959247661269317,16.89842933902663,-8.610111483138297
152.6407184090652,0.01772513778684244,16.88297305569812,-9.050641753742759
161.5586447587848,0.03102522413786248,16.85891863964342,-9.541328340227006
170.9975946676697,0.0185326701974858,16.86004345806903,-10.20225762433654
180.9880085698029,0.020765197703627,16.84125043873988,-10.6328502591643
191.5621053601653,0.009645687392235515,16.8392238654386,-11.28697706594491
202.7539862999612,0.01390616924107904,16.81302738755112,-11.92329884441872
214.5997449925365,0.01999527954024476,16.78800446884715,-12.59271712192876
227.1375837845639,0.01476328513483972,16.75492087072524,-13.17804839644224
240.4079369678839,0.003903120133640537,16.73706996151648,-13.93187776551142
254.4536011793301,0.003829176829906618,16.71560502829449,-14.80032319019412
269.3198734190672,0.02251785490071557,16.65780273058271,-15.43242744809116
285.0546971325567,0.01795057000472806,16.62084353898048,-16.41080473213582
301.7088168272581,0.008653209352261227,16.59810839241283,-17.29009548188522
319.3359417227003,0.02292393762753893,16.52986784876985,-18.14543843715722
337.9929189616926,0.005555198648921214,16.49711170288292,-19.06345619513392
357.7399169412834,0.02263868464205608,16.43438245912726,-20.02907200479527
378.6406193546952,0.0005180393267579194,16.39834456314618,-21.15714427932663
400.7624305700231,0.02412293213608665,16.30456748554721,-22.30404836399487
424.1766930080449,0.01033317941593624,16.24664978969246,-23.44826258730177
448.9589172201711,0.01411042417801544,16.16014349658279,-24.59566759435794
475.1890254085353,0.03344114515539149,16.05996535492239,-25.93203477427242
502.9516091735803,0.02032653743603872,15.98664148524838,-27.19008748009733
532.3362023203628,0.009476076286138238,15.88000353042278,-28.50259621259633
563.4375696033708,0.03292076897836281,15.74815707370265,-29.85956019585505
596.3560123410552,0.02360234652559131,15.62638840062502,-31.41299116583044
631.1976918856806,0.0245464256492978,15.51100507615971,-32.71600876695889
668.0749719916639,0.01962236517337861,15.37039003469023,-33.98149956273877
707.1067811865476,0.05258326748010672,15.19670341058097,-35.71921341921105
748.4189963132453,0.01037458194967024,15.07428991762925,-37.18425298687579
792.1448484804624,0.04000780830856899,14.88053187128396,-38.92846676912275
838.4253527304941,0.03198438939162599,14.70037212357901,-40.3301414065441
887.4097628100533,0.04327597405108478,14.49170233120089,-42.18703404480582
939.2560525107727,-0.01687619075159946,14.33129612224992,-43.76393486607515
994.1314251316742,0.04372659242454699,14.04616087876654,-45.3837513213575
1052.212852706634,0.01969868718435714,13.84235560342295,-47.37581249296828
1113.687646735833,0.01585187133542717,13.60490219840781,-48.72459711294194
1178.754062261777,0.05423101345923775,13.30318240658218,-50.6585824648505
1247.621937238045,0.03944099006929428,13.04267634950374,-52.09224955019657
1320.513369252708,0.05421269557439428,12.72275876570354,-54.19407208690757
1397.663431788814,0.05203075944559674,12.45198965702119,-55.66009247650923
1479.320932331926,0.05710430390219323,12.08835222660038,-57.44204159569912
1565.749214769513,0.03277179392936735,11.83255127197432,-59.13229596150654
1657.227008669993,0.06168186354646499,11.49343729965798,-60.93406925769619
1754.049328180301,0.02892576842380895,11.19406956406834,-62.51972206858814
1856.528423440887,0.08145901318819029,10.80869990386363,-64.2252383035635
1964.994787586509,0.09018048045391527,10.43214056151504,-65.71901488055758
2079.798222580294,0.08688826208765688,10.07292863909616,-67.57652280899168
2201.308967318424,0.0893018419714777,9.70342193961817,-69.04680101109633
2329.918891643553,0.07777711973372203,9.330091389362918,-70.43292418125095
2466.042760117587,0.05706088419925481,8.979660725320077,-72.06340525763744
2610.119569629524,0.09133315411551335,8.546983090605206,-73.45419911944828
2762.613965152073,0.0673560224340007,8.180535522417809,-75.25156624515657
2924.017738212866,0.07730045010025424,7.756980961549893,-76.92225202436023
3094.851412912785,0.1143986298517732,7.303760507418423,-78.07849966362923
3275.665924606298,0.1085643643070932,6.895381856786359,-79.51056622373743
3467.044396657504,0.1114405260008485,6.463687177731535,-80.98560121986034
3669.604021001906,0.1256514374368926,6.031321163549091,-82.33579678054548
3883.998048578666,0.1217247770486099,5.610506571884527,-83.95226265443523
4110.91789605249,0.1227469770749012,5.174614614536725,-85.05337700872127
4351.095375619197,0.1665924104983826,4.70264163663214,-86.61058048480362
4605.305055086172,0.1547748866711046,4.253128124389826,-87.88209164736526
4874.36675583883,0.1621012647514351,3.795658082586657,-89.65417301334116
5159.148196748966,0.1647817938540945,3.349747391692579,-90.91680411395528
5460.567792551683,0.2011520949365155,2.854897529854995,-92.46113306679143
5779.597615715405,0.1684531632205934,2.438197652831722,-93.77041504060514
6117.266531357141,0.1672373044108443,1.99345845154769,-95.59978396498654
6474.663515312955,0.2119182310051815,1.514112442902759,-96.58143657791669
6852.941166064297,0.1982429426718023,1.067512895792361,-98.61163929670204
7253.319421846229,0.2074886586262909,0.6083398947024633,-100.1588145746803
7677.08949492507,0.166003231124642,0.1142417081998821,-101.6406507752698
8125.618035733363,0.202603944587087,-0.3945937121066772,-103.0878798422732
8600.351540291613,0.2202010180664964,-0.8659030583137466,-105.2253699781162
9102.821015130405,0.2188826577982656,-1.353710749281899,-106.2943720493424
9634.646914757404,0.2317404403795913,-1.816730173048286,-108.6243315450595
10197.54436759236,0.1746201288256671,-2.272526170296824,-109.978203176747
10793.32870722362,0.2228264275234536,-2.784788776713123,-111.8924395172069
11423.92132682452,0.2238373588706563,-3.251721192071756,-114.1739352022996
12091.35587560979,0.2280837640372846,-3.838183741135139,-116.3111394068729
12797.78481731564,0.1838946127779642,-4.186124101920832,-119.0950383583535
13545.48637185448,0.1982614241245793,-4.747823814336627,-120.760037801174
14336.87186253071,0.1702452024809777,-5.176276115214993,-123.2619427867311
15174.49349251265,0.1379176444639435,-5.662412085844078,-125.7078204183524
16061.05257563926,0.1977881818528592,-6.498255338285319,-126.2579439567095
16999.40824810587,0.1853881695955384,-6.961053033768334,-137.2758652628948
17992.58668912415,0.1885318757690358,-7.388735616857409,-132.1894830571432
19043.7908802925,0.181321258644832,-7.798056826910376,-136.6850060711946
20156.41093515083,0.2235780491032542,-8.322357471539629,-140.1623161285309
21334.03503223242,0.1588743183080532,-8.963963776835101,-143.7676782654771
22580.46098687132,0.1450927401714611,-9.784311551279734,-144.1705538804856
23899.7084990848,0.1889058678978962,-11.62746671502744,-101.6855737778606
25296.0321170294,0.09724137280889733,-4.706563163044349,-141.5255613796641
26773.9349578379,0.1525669402615005,-8.551384088749627,-141.9847258688559
28338.18323008663,0.1055608526778504,-10.91401675927808,-157.9277753586649
29993.82160472731,0.1182790509734322,-12.05882458259468,-166.5208814363007
31746.18948405528,0.2245261751868108,-13.09802458451348,-171.447421670708
33600.93822118018,0.09076887530582101,-14.51817663295284,175.3520361642297
35564.04934553248,0.1397742990884132,-13.43967573611281,-178.9415524587482
37641.85385318225,0.1047030149299269,-14.49009124039684,173.0863617806147
39841.05262418107,0.2715783053752263,-15.63919913091816,166.3514915067385
42168.73803277285,0.4276947799525658,-16.04584817995783,164.6154916842206
44632.41682016619,0.2642623376789149,-10.11346268736936,144.1305117034392
47240.03430363178,0.1881126482154697,-5.260594207108774,157.9186955644101
50000,0.1226354341906659,-3.521901406940017,163.2202536398451
